Index;Frequency (Hz);Z' (Ω);-Z'' (Ω);Z (Ω);-Phase (°);Time (s)
1;99998,4741210938;5536,0705816298;-48016,911553259;48334,9963545905;-83,4231687218909;26,8076949323171
2;79431,5338134766;-56855,1280884188;23514,6481101608;61525,9641590052;157,530557390781;34,7097579123663
3;63095,0927734375;25247,0429863025;26857,71183843;36861,2244065272;46,7705706535731;40,7816598970362
4;50118,4463500977;24656,1825961794;-26764,4975081256;36390,4612100287;-47,347886552533;56,8057708565792
5;39810,1806640625;290639,607121976;-16152,1342897676;291088,084040091;-3,18090896184105;58,9639318511304
6;31622,8866577148;286159,582218235;-15051,0883233834;286555,128648979;-3,0108023168949;61,2476838453645
7;25118,8278198242;286750,01506551;25460,752467824;287878,135773278;5,07402965480028;63,5033548396694
8;19952,7740478516;214160,993143706;13808,0360943024;214605,668250119;3,68904084316524;67,5391408294801
9;15848,6366271973;215573,500352919;13152,6287328424;215974,363517974;3,4914176306463;71,7357798188846
10;12588,9778137207;217643,880555138;13260,219207947;218047,45390979;3,4865056232344;75,8077048086039
11;9999,99046325684;220975,462166734;14197,7002670199;221431,094412401;3,67620778742604;80,9353597956579
12;7943,15338134766;223717,678417675;12692,2808484655;224077,427755967;3,2471077324018;87,056296780204
13;6309,50927734375;224937,751607215;15760,0584356017;225489,182756075;4,00782699454215;93,0528147650642
14;5011,79695129395;226666,399305019;16913,9068952819;227296,583389114;4,2675172323135;97,1997927545941
15;3980,99422454834;230631,418839807;21255,1431655922;231608,791860439;5,26554253851676;101,464672743826
16;3162,2052192688;230852,378048804;21861,7646084962;231885,224200649;5,40978794844378;105,60605873337
17;2511,85894012451;233332,569195279;23651,9413053224;234528,254534033;5,78806209146104;109,719381722985
18;1995,2654838562;214721,201131668;22635,5353262442;215911,004061701;6,01779510139297;112,030844717149
19;1584,91730690002;217224,011075638;23453,2360235896;218486,441839687;6,16223854521677;114,27220571149
20;1258,90970230103;220715,470156215;24808,2842340146;222105,312257305;6,41309419012208;116,538459705769
21;999,987125396729;224154,984099128;25510,8112852281;225601,991101388;6,49282781172666;118,832222699977
22;794,321298599243;227355,372322387;29698,247032548;229286,831721007;7,44211203210507;121,071217694325
23;630,959868431091;231402,934536271;30933,8954570614;233461,397237629;7,61414619604708;123,361369688542
24;501,185655593872;236060,577162448;32304,6968331222;238260,75952147;7,79247607901048;125,650463682763
25;398,106873035431;240750,019720814;36525,4963786957;243504,997651552;8,62686628350989;127,944587676971
26;316,224992275238;244797,025377414;38607,0071389901;247822,687891687;8,96231473431398;130,231842671196
27;251,18887424469;248838,583788225;50832,2332482463;253977,472856814;11,5454180883374;132,54359166536
28;199,530273675919;254111,55145397;44051,1302254042;257901,497972538;9,8346864647197;134,810833659635
29;158,488750457764;254568,794889625;49809,6599153745;259395,978288872;11,0707925833317;138,987821649089
30;125,888735055923;258408,958934581;53987,0035841759;263988,23196054;11,8005437618028;141,340967643148
31;99,9998301267624;260947,501147166;77027,2182107637;272078,648005019;16,4456947566205;143,666995637276
32;79,4325023889542;277974,518320519;77765,7112662329;288647,429720529;15,6294102710924;146,049151631261
33;63,0952417850494;285553,385848405;103375,043717423;303689,209279927;19,9010929788983;149,455662622661
34;50,119124352932;347144,076158611;-22544,1070540943;347875,331656158;-3,71566448230068;155,607839607128
35;39,8103147745132;293960,433330214;174852,850537777;342032,536032573;30,7449282445314;158,02301260103
36;31,6230580210686;337540,165368107;120205,848311929;358305,469125325;19,6019887623398;162,406363589963
37;25,1182354986668;325922,52898938;149099,464992775;358407,791996721;24,582627610908;170,652696569143
38;19,952654838562;342823,285114883;172603,798510545;383822,714384166;26,724224610375;174,312885559902
39;15,8483162522316;368129,589871653;184794,551886434;411908,268120439;26,6558427496165;177,9973845506
40;12,5886872410774;396124,302067437;221481,774513145;453837,679275207;29,2105118172621;180,909351543248
41;9,99984331429005;455470,80193181;282158,075130377;535786,180088369;31,7776615079729;184,926542533105
42;7,94301740825176;492749,622698441;287098,164845313;570287,24948661;30,227007949659;189,184813522354
43;6,30959402769804;517866,241264363;360782,140254892;631149,108030883;34,8637892838928;192,463805514076
44;5,01179601997137;537749,535307803;388467,137201592;663386,221901962;35,8441276490333;196,789651503154
45;3,98105476051569;619222,139033348;473140,36367439;779293,180521278;37,3830203463647;201,31844249172
46;3,16224759444594;626789,487264059;522057,647139053;815726,209141956;39,791168032917;204,920793482625
47;2,51189339905977;735811,549526051;595274,444761524;946451,425590384;38,9729953585049;208,696278473093
48;1,99524220079184;809691,176867003;690626,509090675;1064220,26712286;40,4625373332927;212,600343463236
49;1,5849363990128;763351,938518333;876512,424469411;1162316,74352947;48,9474949328559;216,741865452779
50;1,25891529023647;1385758,61446755;1244838,88644586;1862780,39252586;41,9336260890902;221,114786441739
51;1,00000761449337;1051349,64794752;929606,959977808;1403390,60217694;41,4832241676291;227,824670424798
52;0,794330844655633;1217048,76943696;1042812,45289414;1602705,68698657;40,5911918502333;233,076912411537
53;0,630956492386758;1423174,57131351;1131578,58873697;1818212,29863879;38,4885179974497;238,943039396727
54;0,501182512380183;1662309,4211051;1197094,7829138;2048489,32893833;35,7591532839257;245,571332379992
55;0,398104020860046;1918024,90260023;1211986,06192081;2268860,8906861;32,2884958890517;253,114376360948
56;0,31622766982764;2168588,69184885;1177486,09455064;2467640,65805271;28,5007856817153;261,808460338997
57;0,251187884714454;2403562,97943093;1105171,49531814;2645471,41926626;24,6932321193857;271,891751313539
58;0,199528585653752;2601895,74828779;1001102,0654503;2787842,68394165;21,0446646462677;283,903616283212
59;0,15848854673095;2768329,5946178;879232,54993621;2904599,56298696;17,6200561760965;298,236852247024
60;0,125888618640602;2893377,23425966;757572,2277641;2990910,81445294;14,6723708942906;315,495225203451
61;0,0999989424599335;2989088,24082281;640521,560484962;3056945,59664893;12,0948056748012;336,460470150519
