Index;Frequency (Hz);Z' (Ω);-Z'' (Ω);Z (Ω);-Phase (°);Time (s)
1;99998,4741210938;137127,675945513;12192,4020688225;137668,639051984;5,08096564846849;14,5485339632685
2;79431,5338134766;118352,486110852;6766,68084215619;118545,767272556;3,27226444076728;21,4428939458619
3;63095,0927734375;100448,360743055;22985,5963609957;103044,702998444;12,8890791404707;28,4302479282205
4;50118,4463500977;268613,771985263;7881,00603250989;268729,359684117;1,68055003990521;33,3762399157331
5;39810,1806640625;158049,195896656;1484,97116199149;158056,171859663;0,538313885727683;36,5162459078053
6;31622,8866577148;152848,062820426;12068,0394059749;153323,735550178;4,51439342977607;38,7854369020762
7;25118,8278198242;160172,531777115;6678,74934175988;160311,713947113;2,38769158781913;40,9807528965335
8;19952,7740478516;153898,15197011;8106,96355810009;154111,531164763;3,01540895749488;44,1554958885181
9;15848,6366271973;154909,411636272;7905,62637551824;155111,007803718;2,9214906768887;47,3965788803351
10;12588,9778137207;155947,852299333;8112,65951096584;156158,72656088;2,9779347139814;50,5286928724273
11;9999,99046325684;157266,936305121;7515,16139309172;157446,393752169;2,73585624255834;54,6695328619727
12;7943,15338134766;158330,435044415;8425,34376716485;158554,44831019;3,04604580281077;59,7910718490421
13;6309,50927734375;159164,303583504;9261,48862030645;159433,530685003;3,33018468565307;64,7983088364
14;5011,79695129395;159959,382529812;11247,0515827409;160354,295946893;4,02195720698742;67,9717528283878
15;3980,99422454834;161458,202927605;12251,2111571075;161922,337765447;4,33920456331772;71,190210820262
16;3162,2052192688;163097,626415225;13532,9602933999;163658,109351731;4,74322892392304;74,3728638122266
17;2511,85894012451;165373,002754777;14912,883353883;166044,042741852;5,15283872999603;77,4781038043866
18;1995,2654838562;166241,362925174;14827,3905346675;166901,294953895;5,09683512724042;82,6040557914448
19;1584,91730690002;168422,803975206;17469,251577705;169326,358401626;5,92169202176098;87,6231957787727
20;1258,90970230103;170867,359991062;19146,247474577;171936,713655557;6,39350997940484;92,5691327662854
21;999,987125396729;172929,336039792;21741,3216126578;174290,677687099;7,16584158100177;96,8288407555307
22;794,321298599243;176588,792102668;22577,806593277;178026,286954603;7,28603706344033;100,904109745242
23;630,959868431091;179498,299317142;24820,3465046904;181206,205904652;7,87272087893874;105,015105734862
24;501,185655593872;183735,660377757;27646,1873044293;185803,941203953;8,55694243141703;107,386372728875
25;398,106873035431;187504,8815936;29244,3194324702;189771,733512919;8,86475429325423;109,627096723218
26;316,224992275238;191428,142539824;32320,0814137664;194137,377696413;9,58324864500072;111,811826717702
27;251,18887424469;189926,764232386;38634,6281799937;193816,434458977;11,4981434938664;114,183972711713
28;199,530273675919;200145,107079584;39639,150944743;204032,659580564;11,2025763386823;116,448990705995
29;158,488750457764;204506,055436719;40972,2343532755;208570,013899856;11,3290642258954;118,749390700187
30;125,888735055923;209407,568923723;44833,8266567208;214153,220697772;12,0844958547744;121,069565694329
31;99,9998301267624;219787,181314294;59418,1515634717;227677,231635713;15,1279454810408;123,430655688368
32;79,4325023889542;223523,717574082;56240,8917429814;230490,542587291;14,1230519768785;125,710051682613
33;63,0952417850494;216896,758622969;70939,9315155284;228203,150251214;18,111250691748;128,095000676591
34;50,119124352932;190325,395647384;97377,7231973189;213790,030645554;27,0960152035251;130,488841670547
35;39,8103147745132;247430,966359421;81218,9118020176;260420,035227439;18,1723587937038;132,881496664506
36;31,6230580210686;269104,664330648;99866,2321916602;287037,601537968;20,3601690772494;135,469328657973
37;25,1182354986668;268353,227755664;103646,160014796;287673,3935085;21,1180738233233;138,029674651509
38;19,952654838562;279335,459764114;127508,345524125;307061,357484019;24,5352902365139;140,658800644871
39;15,8483162522316;292957,688889739;139551,141486729;324497,655723221;25,4709141481324;143,422238637894
40;12,5886872410774;309051,108597579;159528,381694314;347795,762325247;27,3022265892187;146,320051630577
41;9,99984331429005;322606,108725516;178016,909314593;368462,645852927;28,8903030836843;149,413377622767
42;7,94301740825176;340675,799828169;191724,392732899;390919,74030146;29,369794083281;152,615025614684
43;6,30959402769804;358027,799133356;237465,338613311;429620,404537551;33,5547051421498;155,898508606394
44;5,01179601997137;394130,754260564;280378,233089741;483684,819944275;35,4274305470102;159,141667598206
45;3,98105476051569;401342,189579973;295550,717069309;498423,293493622;36,3681466529308;164,785158583957
46;3,16224759444594;441687,60626856;358165,844927471;568656,938763486;39,0387028038929;168,365630574918
47;2,51189339905977;481249,88655534;409883,931187256;632144,200602241;40,4212713167208;172,091524565511
48;1,99524220079184;532918,274246587;472469,926275701;712200,616582804;41,5592684777229;175,966158555728
49;1,5849363990128;597673,32039097;545359,4654651;809092,296638366;42,379538951414;180,105290545278
50;1,25891529023647;675179,889816654;623581,831386414;919087,691163397;42,7249121214635;184,557660534037
51;1,00000761449337;768209,77227422;721501,132920443;1053902,33846552;43,2041271023189;191,295976517024
52;0,794330844655633;889417,89194252;817754,726465539;1208216,44549485;42,5962666758401;196,541921503779
53;0,630956492386758;1045206,46624639;901648,116054913;1380371,64643028;40,7827214775246;202,419817488939
54;0,501182512380183;1227598,918369;970338,994119467;1564786,52470217;38,3241314030065;208,999883472326
55;0,398104020860046;1431748,85880385;1008093,31541072;1751044,52463719;35,1493479799224;216,558223453243
56;0,31622766982764;1645684,28647643;1007865,10827118;1929784,66343422;31,4845193250481;225,230976431346
57;0,251187884714454;1854172,34317485;971185,403651763;2093121,15427195;27,6448180341039;235,316427405883
58;0,199528585653752;2042566,76193411;900283,999786522;2232171,64600521;23,7860195738144;247,360311375475
59;0,15848854673095;2202877,84309642;807927,527602866;2346362,64917928;20,1410182838533;261,626124339458
60;0,125888618640602;2329858,60206596;703839,143994707;2433850,99096883;16,8093156609935;278,945944295729
61;0,0999989424599335;2431948,23999484;603358,112614127;2505676,20694919;13,9335564148022;299,858111242931
