Index;Frequency (Hz);Z' (Ω);-Z'' (Ω);Z (Ω);-Phase (°);Time (s)
1;99998,4741210938;306089,596881971;-228712,075119981;382099,534971002;-36,7673171728836;15,519126960818
2;79431,5338134766;151269,786946861;-499892,465299507;522278,685479475;-73,1639405898002;24,3024069386423
3;63095,0927734375;91018,2976231792;-40739,5511513949;99719,8151333963;-24,1131640829484;30,3818829232931
4;50118,4463500977;327562,628882561;629172,589131883;709334,492856066;62,4974128214335;36,252576908471
5;39810,1806640625;983487,326532492;-280538,047356833;1022716,44040018;-15,9207066812186;39,2932569007941
6;31622,8866577148;1198729,91421764;-280899,401637726;1231201,80355645;-13,1882128869163;41,5507998950943
7;25118,8278198242;886098,667511948;-95452,4599520602;891225,01124988;-6,14831629734433;43,7364428895761
8;19952,7740478516;800743,891062541;-253,946270141288;800743,931330539;-0,0181706650238446;46,9034948815801
9;15848,6366271973;777887,170014285;11485,9078918009;777971,963089244;0,845940454718631;50,1176678734651
10;12588,9778137207;818499,909636927;23803,6461839781;818845,965763592;1,66580856501738;53,2423708655759
11;9999,99046325684;823312,299889428;12239,0664410667;823403,265658188;0,851675850875409;57,3547798551931
12;7943,15338134766;831814,385660803;24126,6437177385;832164,206830204;1,66138916168735;62,4902608422273
13;6309,50927734375;843495,109737271;39127,8134754432;844402,147047283;2,65591654902064;67,5139448295437
14;5011,79695129395;838221,843121631;72692,5441121717;841367,971969295;4,95642247321726;70,7007308214978
15;3980,99422454834;859704,358001054;77013,2517013668;863146,930773447;5,11895462930308;73,9259628133549
16;3162,2052192688;862197,914914044;84755,143228656;866353,668420602;5,61421017466699;77,0447758054806
17;2511,85894012451;885624,367634164;93974,7277477754;890596,300240845;6,05706250518118;80,1263187977005
18;1995,2654838562;833598,153899534;121599,19146283;842420,468382105;8,29935205271581;84,3953547869222
19;1584,91730690002;865523,066588036;111846,17175768;872719,740198883;7,36317340141439;88,4828647766022
20;1258,90970230103;886399,177742654;123220,371319846;894922,768852739;7,91409862008953;92,5719277662784
21;999,987125396729;924557,073205768;139742,963472459;935058,221425212;8,59496241311524;96,7449877557424
22;794,321298599243;908647,080280915;155674,435467089;921886,135247205;9,721842723687;100,803821745495
23;630,959868431091;940475,265483687;170359,400880063;955780,335879969;10,2673293940887;104,834453735318
24;501,185655593872;956395,545306789;190105,312337385;975106,388483619;11,2423012955694;108,989066724829
25;398,106873035431;961261,579533744;200977,95279068;982046,822608597;11,8091345681557;113,089470714477
26;316,224992275238;995776,680254634;232871,92708141;1022643,89274153;13,1626144477563;117,210285704072
27;251,18887424469;1106224,11633604;125856,345595516;1113360,50553723;6,49069554985477;121,388456693524
28;199,530273675919;1036897,63630488;330776,33879183;1088379,38903636;17,6929834316829;125,505461683129
29;158,488750457764;1091768,17859203;326597,330240897;1139571,66159335;16,6543069481463;129,680650672588
30;125,888735055923;1120237,93618223;371691,647791722;1180291,36856115;18,3556922919044;133,972611661752
31;99,9998301267624;952062,490004075;544906,474450337;1096971,30808907;29,784369753714;138,127407651262
32;79,4325023889542;1241190,45813833;374715,006831592;1296520,37767188;16,7990487057778;142,241627640874
33;63,0952417850494;1355648,50825167;153736,085886606;1364337,81081838;6,46993473255688;146,578244629926
34;50,119124352932;636557,065695098;42326,2064874908;637962,69925598;3,80413410612216;155,408032607632
35;39,8103147745132;1393559,36416303;638284,015461665;1532779,88825543;24,6089293515512;158,783291599111
36;31,6230580210686;1964872,6138617;916552,572726928;2168131,22464395;25,0076024698882;163,115734588172
37;25,1182354986668;1474324,57066543;877853,924676729;1715884,74343067;30,7707471277325;166,635011579287
38;19,952654838562;1590230,51983087;1036357,21521428;1898122,5944939;33,0923881509764;170,247640570166
39;15,8483162522316;1588587,47706047;1179374,26625186;1978518,08992753;36,5903538030135;173,944670560832
40;12,5886872410774;1931144,75556715;1244775,33894795;2297560,81778209;32,8049777913863;176,893308553387
41;9,99984331429005;1868239,70189432;1524096,03464393;2411055,43415151;39,2073094118295;186,397487529392
42;7,94301740825176;2300127,67157404;1432903,30215273;2709944,49737643;31,9215381201289;189,679044521106
43;6,30959402769804;2577795,57746099;2463225,06534942;3565460,38566454;43,6980261848109;192,964605512811
44;5,01179601997137;2351353,51281273;3066491,99839503;3864225,21580168;52,519392355477;196,238801504545
45;3,98105476051569;2333084,50334889;2452585,40281188;3385034,48399756;46,4304109504606;201,844584490391
46;3,16224759444594;2869069,84747976;3589272,40021894;4595044,95654732;51,3630541814247;205,406538481398
47;2,51189339905977;3254227,53816352;4583734,37861855;5621442,6728262;54,6271086732066;210,270070469119
48;1,99524220079184;3457923,98340938;4609278,41984897;5762177,17765805;53,1224246890892;214,166046459283
49;1,5849363990128;2568814,6168563;5514413,93390824;6083384,71332003;65,0221835512528;218,226452449031
50;1,25891529023647;3773998,91215063;10794984,3360102;11435679,0180391;70,7300311655794;222,660978437835
51;1,00000761449337;4966699,84088795;8345337,91834897;9711476,3183004;59,2411496572657;227,55452442548
52;0,794330844655633;5585200,31912455;9918309,57001976;11382764,485462;60,6152604402389;234,841323407083
53;0,630956492386758;6405616,6636979;11791880,7893185;13419403,0192011;61,4881888476324;240,574796392607
54;0,501182512380183;7389836,46755737;13968505,7941199;15802811,0517591;62,1195671608448;247,118475376086
55;0,398104020860046;8565686,36047862;16512507,126703;18601985,7659205;62,5824560902715;254,650816357068
56;0,31622766982764;9952333,77059636;19544065,0734874;21932155,0942461;63,0136512765691;263,325310335168
57;0,251187884714454;11625460,2675166;23122266,4377471;25880311,6605997;63,3075715027057;273,390150309756
58;0,199528585653752;13443153,1743788;27426623,2339711;30544034,2667437;63,8882264690272;285,305604279673
59;0,15848854673095;15634836,4496246;32483480,4075011;36050306,6587653;64,2977185520845;299,623527243523
60;0,125888618640602;18095047,0820886;38584635,0131438;42616954,2318609;64,874818499556;316,935396199815
61;0,0999989424599335;21079037,3416649;45899907,7285669;50508685,834639;65,333557452195;337,928322146813
