Index;Frequency (Hz);Z' (Ω);-Z'' (Ω);Z (Ω);-Phase (°);Time (s)
1;99998,4741210938;66779,1041151164;12065,3477286683;67860,3077080501;10,2414577213131;15,5018629608616
2;79431,5338134766;55760,9795894959;2887,37066373885;55835,6853108296;2,96419704972658;32,6737949175066
3;63095,0927734375;74197,0734065347;-5179,08541102797;74377,6083763751;-3,99286916249073;38,7378189021964
4;50118,4463500977;66972,6504005751;1192,27774415075;66983,262296613;1,01989792862584;43,7418808895624
5;39810,1806640625;63500,8867128281;4933,23743252108;63692,2243675085;4,44225440899876;46,8804758816382
6;31622,8866577148;64201,8519029149;4307,65919674093;64346,2020287062;3,83853917208581;49,167884875863
7;25118,8278198242;64834,0229451103;4983,5039261805;65025,2708001231;4,39542964015216;51,4147578701902
8;19952,7740478516;65070,925029472;5132,10567095415;65272,9943606773;4,50954958941033;56,4693348574286
9;15848,6366271973;65524,9514802947;5406,92520171464;65747,6547614583;4,71719109136426;61,5756188445365
10;12588,9778137207;66360,7425683355;5735,98793287451;66608,1805170129;4,94016590519022;66,5383088320069
11;9999,99046325684;67245,7888553975;5950,95293641378;67508,5917468;5,05724698583076;72,5454618168403
12;7943,15338134766;67982,0009820629;6420,82929557624;68284,5480791089;5,39552100646999;80,5262467966908
13;6309,50927734375;68804,8198022163;7023,34967940141;69162,3500810564;5,82836093695992;88,3089457770413
14;5011,79695129395;69579,4656040061;7850,79751067147;70020,9758236247;6,43757638786536;93,3529477643065
15;3980,99422454834;70562,3800320466;8547,99084605167;71078,2500016085;6,90720599505833;98,4589187514151
16;3162,2052192688;71616,8116477042;9389,66936414823;72229,7279612125;7,46943609338797;103,436663738848
17;2511,85894012451;72815,5710414236;10335,1293729088;73545,3756890491;8,07835705354175;107,553181728454
18;1995,2654838562;74141,3639452938;11402,0300609113;75012,9864568692;8,74289068211694;111,724627717922
19;1584,91730690002;75605,5354591584;12631,9074415631;76653,519669212;9,4851671752909;115,874000707446
20;1258,90970230103;77208,298987647;13980,0507873126;78463,7703184198;10,2633049421784;120,003206697021
21;999,987125396729;78995,837723709;15477,0118273316;80497,7035248455;11,0850842663582;124,207312686407
22;794,321298599243;81115,6357671892;17182,0774404201;82915,439762953;11,9597268640687;128,335688675984
23;630,959868431091;83417,6083183231;18980,56843609;85549,7478412781;12,8186476427469;130,614745670229
24;501,185655593872;85875,1437291986;20989,4406779163;88403,0368849526;13,73484474094;132,911303664431
25;398,106873035431;88666,557000711;23124,025858109;91632,3027226034;14,617013699516;135,203166658645
26;316,224992275238;91641,6157861365;25416,8033733663;95100,9970379608;15,5013550640652;137,475065652909
27;251,18887424469;94693,3966789193;28040,5368962534;98757,8406204859;16,4950352164833;139,842290646932
28;199,530273675919;97997,1842384605;30155,7263551598;102532,024025053;17,1041959157784;142,171618641051
29;158,488750457764;101628,29102141;34002,8439388836;107165,77313613;18,4992361444459;144,488054635203
30;125,888735055923;105320,697031301;37806,1372268542;111900,640012356;19,7462137428458;146,83008462929
31;99,9998301267624;109640,150864427;41437,1497283104;117209,214907279;20,7034703110552;149,148049623437
32;79,4325023889542;113369,579177691;48103,8221895419;123152,909799849;22,9919877067761;151,496212617509
33;63,0952417850494;119930,433561715;56029,0843117534;132372,834007263;25,041034646467;153,875763611501
34;50,119124352932;123256,474459683;64300,4794601945;139020,538608658;27,5501637901895;156,270665605455
35;39,8103147745132;132530,231728781;72373,3716700303;151003,865013359;28,6384916659627;158,735265599232
36;31,6230580210686;140520,357627179;83091,6720659309;163248,880162721;30,5964244566158;161,342032592651
37;25,1182354986668;148481,798347818;94069,5686547743;175772,376064891;32,3560068828019;163,963451586032
38;19,952654838562;158191,697461632;110896,285495546;193190,577623502;35,0314041510144;166,596992579383
39;15,8483162522316;168889,805590504;128807,1229725;212403,016364766;37,3316652780572;169,459501572156
40;12,5886872410774;178003,744379031;144810,872090043;229467,909931725;39,1292890499649;172,347651564864
41;9,99984331429005;191072,057064183;158853,575260146;248481,366230285;39,7394734707256;175,462453557
42;7,94301740825176;212787,820521989;185679,587166158;282410,278943053;41,1080937017523;182,46504453932
43;6,30959402769804;229756,880780116;214110,387936424;314056,495694794;42,9811375477641;185,750660531025
44;5,01179601997137;249228,609119107;247445,382369887;351203,81099815;44,7942897566906;192,2559755146
45;3,98105476051569;268333,87874888;286916,660193961;392841,240682894;46,9168242511085;196,88246650292
46;3,16224759444594;287748,859799988;334058,612951627;440901,988205268;49,2592989263406;200,50257049378
47;2,51189339905977;314453,680778296;394182,111809116;504242,654508038;51,4193379956657;204,188112484475
48;1,99524220079184;339453,848910545;462823,219116754;573963,629242984;53,7421248347889;208,155817474457
49;1,5849363990128;371794,183191834;556380,636447053;669171,373617036;56,247684309275;212,263222464087
50;1,25891529023647;404522,25065245;672459,127772688;784754,439170451;58,9707086021602;216,712193452854
51;1,00000761449337;442938,66915626;794298,907834186;909453,363081637;60,8538936412396;221,60152444051
52;0,794330844655633;485705,259035288;961455,24704893;1077174,91185622;63,1981357220076;226,836588427293
53;0,630956492386758;544879,466923835;1164276,67433808;1285470,26721078;64,9204873904293;232,689876412515
54;0,501182512380183;619915,698756484;1412105,39936883;1542185,82942891;66,2984771006298;239,354860395687
55;0,398104020860046;719053,289175089;1715029,86243709;1859667,99771478;67,2533645829886;246,86737337672
56;0,31622766982764;849742,734964259;2084595,71180653;2251133,49166742;67,8227408508736;255,565469354759
57;0,251187884714454;1027410,55554416;2529250,26555713;2729959,58861379;67,8924448641926;265,729833329097
58;0,199528585653752;1282592,54512714;3075926,98932735;3332622,16287538;67,3649586641624;301,003837240038
59;0,15848854673095;1618895,13390386;3699135,57384579;4037873,87721175;66,3638191581882;322,418854185971
60;0,125888618640602;2074465,64008081;4416143,61929979;4879111,82062454;64,8383983469875;339,754036142204
61;0,0999989424599335;2691279,58557029;5218319,16671817;5871442,81530916;62,7181734572997;382,368143034613
